
T0EC0 000:408 SEGGER J-Link V4.96d Log File (0002ms, 0275ms total)
T0EC0 000:408 DLL Compiled: Jan 29 2015 11:45:37 (0002ms, 0275ms total)
T0EC0 000:408 Logging started @ 2018-04-06 20:39 (0002ms, 0275ms total)
T0EC0 000:410 JLINK_SetWarnOutHandler(...) (0000ms, 0275ms total)
T0EC0 000:410 JLINK_OpenEx(...)
Firmware: J-Link ARM V8 compiled Nov 28 2014 13:44:46
Hardware: V8.00
S/N: 1631096674
Feature(s): RDI,FlashDL,FlashBP,JFlash,GDBFULL  returns O.K. (0271ms, 0546ms total)
T0EC0 000:682 JLINK_SetErrorOutHandler(...) (0000ms, 0546ms total)
T0EC0 000:682 JLINK_ExecCommand("ProjectFile = "E:\Projects\Quadrotor\demo\Quadrotor\USER\JLinkSettings.ini"", ...)Device "UNSPECIFIED" selected.  returns 0x00 (0013ms, 0559ms total)
T0EC0 000:712 JLINK_ExecCommand("Device = STM32F429IGTx", ...)Device "UNSPECIFIED" selected.  returns 0x00 (0021ms, 0581ms total)
T0EC0 000:734 JLINK_ExecCommand("DisableConnectionTimeout", ...)  returns 0x01 (0000ms, 0581ms total)
T0EC0 000:734 JLINK_GetHardwareVersion()  returns 0x13880 (0000ms, 0581ms total)
T0EC0 000:734 JLINK_GetDLLVersion()  returns 49604 (0000ms, 0581ms total)
T0EC0 000:734 JLINK_GetFirmwareString(...) (0000ms, 0581ms total)
T0EC0 000:835 JLINK_GetDLLVersion()  returns 49604 (0000ms, 0581ms total)
T0EC0 000:835 JLINK_GetCompileDateTime() (0000ms, 0581ms total)
T0EC0 000:845 JLINK_GetFirmwareString(...) (0000ms, 0581ms total)
T0EC0 000:859 JLINK_GetHardwareVersion()  returns 0x13880 (0000ms, 0581ms total)
T0EC0 000:895 JLINK_TIF_Select(JLINKARM_TIF_SWD)  returns 0x00 (0002ms, 0583ms total)
T0EC0 000:897 JLINK_SetSpeed(10000) (0001ms, 0584ms total)
T0EC0 000:898 JLINK_GetId() >0x108 TIF>Found SWD-DP with ID 0x2BA01477 >0x0D TIF> >0x21 TIF> >0x0D TIF> >0x28 TIF> >0x0D TIF> >0x28 TIF> >0x0D TIF> >0x21 TIF> >0x0D TIF> >0x28 TIF> >0x0D TIF> >0x21 TIF> >0x0D TIF> >0x21 TIF> >0x0D TIF> >0x21 TIF> >0x0D TIF> >0x21 TIF> >0x0D TIF> >0x28 TIF> >0x0D TIF> >0x28 TIF> >0x0D TIF> >0x21 TIF> >0x0D TIF> >0x28 TIF> >0x0D TIF> >0x28 TIF> >0x0D TIF> >0x28 TIF> >0x0D TIF> >0x21 TIF> >0x0D TIF> >0x21 TIF> >0x0D TIF> >0x28 TIF> >0x0D TIF> >0x21 TIF> >0x0D TIF>
 >0x21 TIF>Found Cortex-M4 r0p1, Little endian. -- CPU_WriteMem(4 bytes @ 0xE0002000) -- CPU_ReadMem(4 bytes @ 0xE000EDF0) -- CPU_ReadMem(4 bytes @ 0xE0002000)FPUnit: 6 code (BP) slots and 2 literal slots -- CPU_ReadMem(4 bytes @ 0xE000EDFC) -- CPU_ReadMem(4 bytes @ 0xE0001000) -- CPU_WriteMem(4 bytes @ 0xE0001000) -- CPU_ReadMem(4 bytes @ 0xE000ED88) -- CPU_WriteMem(4 bytes @ 0xE000ED88) -- CPU_ReadMem(4 bytes @ 0xE000ED88) -- CPU_WriteMem(4 bytes @ 0xE000ED88) -- CPU_ReadMem(4 bytes @ 0xE00FF010)
TPIU fitted. -- CPU_ReadMem(4 bytes @ 0xE00FF014)ETM fitted. -- CPU_ReadMem(4 bytes @ 0xE00FF018) >0x0D TIF> >0x21 TIF>  returns 0x2BA01477 (0078ms, 0662ms total)
T0EC0 000:976 JLINK_GetDLLVersion()  returns 49604 (0000ms, 0662ms total)
T0EC0 000:976 JLINK_CORE_GetFound()  returns 0xE0000FF (0000ms, 0662ms total)
T0EC0 000:976 JLINK_GetDebugInfo(0x100) -- Value=0xE00FF003  returns 0x00 (0000ms, 0662ms total)
T0EC0 000:989 JLINK_ReadMem (0xE00FF000, 0x0020 Bytes, ...) -- CPU is running -- CPU_ReadMem(32 bytes @ 0xE00FF000) - Data: 03 F0 F0 FF 03 20 F0 FF 03 30 F0 FF 03 10 F0 FF ...  returns 0x00 (0001ms, 0663ms total)
T0EC0 000:990 JLINK_ReadMem (0xE000EFF0, 0x0010 Bytes, ...) -- CPU is running -- CPU_ReadMem(16 bytes @ 0xE000EFF0) - Data: 0D 00 00 00 E0 00 00 00 05 00 00 00 B1 00 00 00  returns 0x00 (0000ms, 0663ms total)
T0EC0 000:990 JLINK_ReadMem (0xE000EFD0, 0x0020 Bytes, ...) -- CPU is running -- CPU_ReadMem(32 bytes @ 0xE000EFD0) - Data: 04 00 00 00 00 00 00 00 00 00 00 00 00 00 00 00 ...  returns 0x00 (0002ms, 0665ms total)
T0EC0 000:992 JLINK_ReadMem (0xE0001FF0, 0x0010 Bytes, ...) -- CPU is running -- CPU_ReadMem(16 bytes @ 0xE0001FF0) - Data: 0D 00 00 00 E0 00 00 00 05 00 00 00 B1 00 00 00  returns 0x00 (0001ms, 0666ms total)
T0EC0 000:993 JLINK_ReadMem (0xE0001FD0, 0x0020 Bytes, ...) -- CPU is running -- CPU_ReadMem(32 bytes @ 0xE0001FD0) - Data: 04 00 00 00 00 00 00 00 00 00 00 00 00 00 00 00 ...  returns 0x00 (0002ms, 0668ms total)
T0EC0 000:995 JLINK_ReadMem (0xE0002FF0, 0x0010 Bytes, ...) -- CPU is running -- CPU_ReadMem(16 bytes @ 0xE0002FF0) - Data: 0D 00 00 00 E0 00 00 00 05 00 00 00 B1 00 00 00  returns 0x00 (0000ms, 0668ms total)
T0EC0 000:995 JLINK_ReadMem (0xE0002FD0, 0x0020 Bytes, ...) -- CPU is running -- CPU_ReadMem(32 bytes @ 0xE0002FD0) - Data: 04 00 00 00 00 00 00 00 00 00 00 00 00 00 00 00 ...  returns 0x00 (0001ms, 0669ms total)
T0EC0 000:996 JLINK_ReadMem (0xE0000FF0, 0x0010 Bytes, ...) -- CPU is running -- CPU_ReadMem(16 bytes @ 0xE0000FF0) - Data: 0D 00 00 00 E0 00 00 00 05 00 00 00 B1 00 00 00  returns 0x00 (0001ms, 0670ms total)
T0EC0 000:997 JLINK_ReadMem (0xE0000FD0, 0x0020 Bytes, ...) -- CPU is running -- CPU_ReadMem(32 bytes @ 0xE0000FD0) - Data: 04 00 00 00 00 00 00 00 00 00 00 00 00 00 00 00 ...  returns 0x00 (0003ms, 0673ms total)
T0EC0 001:000 JLINK_ReadMem (0xE0040FF0, 0x0010 Bytes, ...) -- CPU is running -- CPU_ReadMem(16 bytes @ 0xE0040FF0) - Data: 0D 00 00 00 90 00 00 00 05 00 00 00 B1 00 00 00  returns 0x00 (0000ms, 0673ms total)
T0EC0 001:000 JLINK_ReadMem (0xE0040FD0, 0x0020 Bytes, ...) -- CPU is running -- CPU_ReadMem(32 bytes @ 0xE0040FD0) - Data: 04 00 00 00 00 00 00 00 00 00 00 00 00 00 00 00 ...  returns 0x00 (0002ms, 0675ms total)
T0EC0 001:002 JLINK_ReadMem (0xE0041FF0, 0x0010 Bytes, ...) -- CPU is running -- CPU_ReadMem(16 bytes @ 0xE0041FF0) - Data: 0D 00 00 00 90 00 00 00 05 00 00 00 B1 00 00 00  returns 0x00 (0000ms, 0675ms total)
T0EC0 001:002 JLINK_ReadMem (0xE0041FD0, 0x0020 Bytes, ...) -- CPU is running -- CPU_ReadMem(32 bytes @ 0xE0041FD0) - Data: 04 00 00 00 00 00 00 00 00 00 00 00 00 00 00 00 ...  returns 0x00 (0001ms, 0676ms total)
T0EC0 001:003 JLINK_ReadMemU32(0xE000EF40, 0x0001 Items, ...) -- CPU is running -- CPU_ReadMem(4 bytes @ 0xE000EF40) - Data: 21 00 11 10  returns 0x01 (0002ms, 0678ms total)
T0EC0 001:005 JLINK_ReadMemU32(0xE000EF44, 0x0001 Items, ...) -- CPU is running -- CPU_ReadMem(4 bytes @ 0xE000EF44) - Data: 11 00 00 11  returns 0x01 (0001ms, 0679ms total)
T0EC0 001:006 JLINK_ReadMemU32(0xE000ED00, 0x0001 Items, ...) -- CPU is running -- CPU_ReadMem(4 bytes @ 0xE000ED00) - Data: 41 C2 0F 41  returns 0x01 (0001ms, 0680ms total)
T0EC0 001:007 JLINK_SetResetType(JLINKARM_RESET_TYPE_NORMAL)  returns JLINKARM_RESET_TYPE_NORMAL (0000ms, 0680ms total)
T0EC0 001:007 JLINK_Reset() -- CPU is running -- CPU_WriteMem(4 bytes @ 0xE000EDF0) -- CPU is running -- CPU_WriteMem(4 bytes @ 0xE000EDFC) >0x35 TIF> -- CPU is running -- CPU_WriteMem(4 bytes @ 0xE000ED0C) -- CPU is running -- CPU_ReadMem(4 bytes @ 0xE000EDF0) -- CPU is running -- CPU_ReadMem(4 bytes @ 0xE000EDF0) -- CPU is running -- CPU_WriteMem(4 bytes @ 0xE000EDF0) -- CPU is running -- CPU_WriteMem(4 bytes @ 0xE000EDFC) -- CPU is running -- CPU_ReadMem(4 bytes @ 0xE000EDF0)
 -- CPU_WriteMem(4 bytes @ 0xE0002000) -- CPU_ReadMem(4 bytes @ 0xE000EDFC) -- CPU_ReadMem(4 bytes @ 0xE0001000) (0021ms, 0701ms total)
T0EC0 001:028 JLINK_Halt()  returns 0x00 (0000ms, 0701ms total)
T0EC0 001:028 JLINK_IsHalted()  returns TRUE (0000ms, 0701ms total)
T0EC0 001:028 JLINK_ReadMemU32(0xE000EDF0, 0x0001 Items, ...) -- CPU_ReadMem(4 bytes @ 0xE000EDF0) - Data: 03 00 03 00  returns 0x01 (0001ms, 0702ms total)
T0EC0 001:029 JLINK_WriteU32(0xE000EDF0, 0xA05F0003) -- CPU_WriteMem(4 bytes @ 0xE000EDF0)  returns 0x00 (0001ms, 0703ms total)
T0EC0 001:030 JLINK_WriteU32(0xE000EDFC, 0x01000000) -- CPU_WriteMem(4 bytes @ 0xE000EDFC)  returns 0x00 (0001ms, 0704ms total)
T0EC0 001:074 JLINK_GetHWStatus(...)  returns 0x00 (0001ms, 0705ms total)
T0EC0 001:101 JLINK_GetNumBPUnits(Type = 0xFFFFFF00)  returns 0x06 (0000ms, 0705ms total)
T0EC0 001:101 JLINK_GetNumBPUnits(Type = 0xF0)  returns 0x2000 (0000ms, 0705ms total)
T0EC0 001:101 JLINK_GetNumWPUnits()  returns 0x04 (0000ms, 0705ms total)
T0EC0 001:130 JLINK_GetSpeed()  returns 0xFA0 (0000ms, 0705ms total)
T0EC0 001:146 JLINK_ReadMemU32(0xE000E004, 0x0001 Items, ...) -- CPU_ReadMem(4 bytes @ 0xE000E004) - Data: 02 00 00 00  returns 0x01 (0001ms, 0706ms total)
T0EC0 001:147 JLINK_ReadMemU32(0xE000E004, 0x0001 Items, ...) -- CPU_ReadMem(4 bytes @ 0xE000E004) - Data: 02 00 00 00  returns 0x01 (0001ms, 0707ms total)
T0EC0 001:148 JLINK_WriteMem(0xE0001000, 0x001C Bytes, ...) - Data: 01 00 00 00 00 00 00 00 00 00 00 00 00 00 00 00 ... -- CPU_WriteMem(28 bytes @ 0xE0001000)  returns 0x1C (0003ms, 0710ms total)
T0EC0 001:151 JLINK_ReadMem (0xE0001000, 0x001C Bytes, ...) -- CPU_ReadMem(28 bytes @ 0xE0001000) - Data: 01 00 00 40 00 00 00 00 00 00 00 00 00 00 00 00 ...  returns 0x00 (0001ms, 0711ms total)
T0EC0 001:152 JLINK_Halt()  returns 0x00 (0000ms, 0711ms total)
T0EC0 001:152 JLINK_IsHalted()  returns TRUE (0000ms, 0711ms total)
T0EC0 001:162 JLINK_WriteMem(0x20000000, 0x0180 Bytes, ...) - Data: 00 BE 0A E0 0D 78 2D 06 68 40 08 24 40 00 00 D3 ... -- CPU_WriteMem(384 bytes @ 0x20000000)  returns 0x180 (0006ms, 0717ms total)
T0EC0 001:168 JLINK_WriteReg(R0, 0x08000000)  returns 0x00 (0000ms, 0717ms total)
T0EC0 001:168 JLINK_WriteReg(R1, 0x017D7840)  returns 0x00 (0000ms, 0717ms total)
T0EC0 001:168 JLINK_WriteReg(R2, 0x00000001)  returns 0x00 (0000ms, 0717ms total)
T0EC0 001:169 JLINK_WriteReg(R3, 0x00000000)  returns 0x00 (0000ms, 0717ms total)
T0EC0 001:169 JLINK_WriteReg(R4, 0x00000000)  returns 0x00 (0000ms, 0717ms total)
T0EC0 001:169 JLINK_WriteReg(R5, 0x00000000)  returns 0x00 (0000ms, 0717ms total)
T0EC0 001:169 JLINK_WriteReg(R6, 0x00000000)  returns 0x00 (0000ms, 0717ms total)
T0EC0 001:169 JLINK_WriteReg(R7, 0x00000000)  returns 0x00 (0000ms, 0717ms total)
T0EC0 001:169 JLINK_WriteReg(R8, 0x00000000)  returns 0x00 (0000ms, 0717ms total)
T0EC0 001:169 JLINK_WriteReg(R9, 0x2000017C)  returns 0x00 (0000ms, 0717ms total)
T0EC0 001:170 JLINK_WriteReg(R10, 0x00000000)  returns 0x00 (0000ms, 0718ms total)
T0EC0 001:170 JLINK_WriteReg(R11, 0x00000000)  returns 0x00 (0000ms, 0718ms total)
T0EC0 001:170 JLINK_WriteReg(R12, 0x00000000)  returns 0x00 (0000ms, 0718ms total)
T0EC0 001:170 JLINK_WriteReg(R13 (SP), 0x20001000)  returns 0x00 (0000ms, 0718ms total)
T0EC0 001:170 JLINK_WriteReg(R14, 0x20000001)  returns 0x00 (0000ms, 0718ms total)
T0EC0 001:170 JLINK_WriteReg(R15 (PC), 0x20000054)  returns 0x00 (0000ms, 0718ms total)
T0EC0 001:170 JLINK_WriteReg(XPSR, 0x01000000)  returns 0x00 (0000ms, 0718ms total)
T0EC0 001:170 JLINK_WriteReg(MSP, 0x20001000)  returns 0x00 (0000ms, 0718ms total)
T0EC0 001:170 JLINK_WriteReg(PSP, 0x20001000)  returns 0x00 (0000ms, 0718ms total)
T0EC0 001:170 JLINK_WriteReg(CFBP, 0x00000000)  returns 0x00 (0000ms, 0718ms total)
T0EC0 001:170 JLINK_SetBPEx(Addr = 0x20000000, Type = 0xFFFFFFF2) -- CPU_ReadMem(4 bytes @ 0x20000000) -- CPU_WriteMem(4 bytes @ 0x20000000) -- CPU_ReadMem(4 bytes @ 0x20000000) -- CPU_WriteMem(4 bytes @ 0x20000000) -- CPU_ReadMem(2 bytes @ 0x20000000)  returns 0x00000001 (0004ms, 0722ms total)
T0EC0 001:174 JLINK_Go() -- CPU_WriteMem(2 bytes @ 0x20000000) -- CPU_WriteMem(4 bytes @ 0xE0002008) -- CPU_WriteMem(4 bytes @ 0xE000200C) -- CPU_WriteMem(4 bytes @ 0xE0002010) -- CPU_WriteMem(4 bytes @ 0xE0002014) -- CPU_WriteMem(4 bytes @ 0xE0002018) -- CPU_WriteMem(4 bytes @ 0xE000201C) -- CPU_WriteMem(4 bytes @ 0xE0001004) (0006ms, 0728ms total)
T0EC0 001:180 JLINK_IsHalted() -- CPU_ReadMem(2 bytes @ 0x20000000)  returns TRUE (0004ms, 0732ms total)
T0EC0 001:184 JLINK_ReadReg(R15 (PC))  returns 0x20000000 (0000ms, 0728ms total)
T0EC0 001:184 JLINK_ClrBPEx(BPHandle = 0x00000001)  returns 0x00 (0000ms, 0728ms total)
T0EC0 001:184 JLINK_ReadReg(R0)  returns 0x00000000 (0000ms, 0728ms total)
T0EC0 001:185 JLINK_WriteReg(R0, 0x08000000)  returns 0x00 (0000ms, 0728ms total)
T0EC0 001:185 JLINK_WriteReg(R1, 0x00004000)  returns 0x00 (0000ms, 0728ms total)
T0EC0 001:185 JLINK_WriteReg(R2, 0x000000FF)  returns 0x00 (0000ms, 0728ms total)
T0EC0 001:186 JLINK_WriteReg(R3, 0x00000000)  returns 0x00 (0000ms, 0729ms total)
T0EC0 001:186 JLINK_WriteReg(R4, 0x00000000)  returns 0x00 (0000ms, 0729ms total)
T0EC0 001:186 JLINK_WriteReg(R5, 0x00000000)  returns 0x00 (0000ms, 0729ms total)
T0EC0 001:186 JLINK_WriteReg(R6, 0x00000000)  returns 0x00 (0000ms, 0729ms total)
T0EC0 001:186 JLINK_WriteReg(R7, 0x00000000)  returns 0x00 (0000ms, 0729ms total)
T0EC0 001:186 JLINK_WriteReg(R8, 0x00000000)  returns 0x00 (0000ms, 0729ms total)
T0EC0 001:186 JLINK_WriteReg(R9, 0x2000017C)  returns 0x00 (0000ms, 0729ms total)
T0EC0 001:186 JLINK_WriteReg(R10, 0x00000000)  returns 0x00 (0000ms, 0729ms total)
T0EC0 001:186 JLINK_WriteReg(R11, 0x00000000)  returns 0x00 (0000ms, 0729ms total)
T0EC0 001:186 JLINK_WriteReg(R12, 0x00000000)  returns 0x00 (0000ms, 0729ms total)
T0EC0 001:186 JLINK_WriteReg(R13 (SP), 0x20001000)  returns 0x00 (0000ms, 0729ms total)
T0EC0 001:186 JLINK_WriteReg(R14, 0x20000001)  returns 0x00 (0000ms, 0729ms total)
T0EC0 001:186 JLINK_WriteReg(R15 (PC), 0x20000020)  returns 0x00 (0000ms, 0729ms total)
T0EC0 001:186 JLINK_WriteReg(XPSR, 0x01000000)  returns 0x00 (0000ms, 0729ms total)
T0EC0 001:186 JLINK_WriteReg(MSP, 0x20001000)  returns 0x00 (0000ms, 0729ms total)
T0EC0 001:186 JLINK_WriteReg(PSP, 0x20001000)  returns 0x00 (0000ms, 0729ms total)
T0EC0 001:186 JLINK_WriteReg(CFBP, 0x00000000)  returns 0x00 (0000ms, 0729ms total)
T0EC0 001:188 JLINK_SetBPEx(Addr = 0x20000000, Type = 0xFFFFFFF2)  returns 0x00000002 (0000ms, 0731ms total)
T0EC0 001:188 JLINK_Go() (0001ms, 0732ms total)
T0EC0 001:189 JLINK_IsHalted() -- CPU_ReadMem(2 bytes @ 0x20000000)  returns TRUE (0004ms, 0736ms total)
T0EC0 001:193 JLINK_ReadReg(R15 (PC))  returns 0x20000000 (0000ms, 0732ms total)
T0EC0 001:193 JLINK_ClrBPEx(BPHandle = 0x00000002)  returns 0x00 (0000ms, 0732ms total)
T0EC0 001:193 JLINK_ReadReg(R0)  returns 0x00000001 (0000ms, 0732ms total)
T0EC0 001:193 JLINK_WriteReg(R0, 0x08000000)  returns 0x00 (0000ms, 0732ms total)
T0EC0 001:193 JLINK_WriteReg(R1, 0x00004000)  returns 0x00 (0000ms, 0732ms total)
T0EC0 001:193 JLINK_WriteReg(R2, 0x000000FF)  returns 0x00 (0000ms, 0732ms total)
T0EC0 001:193 JLINK_WriteReg(R3, 0x00000000)  returns 0x00 (0000ms, 0732ms total)
T0EC0 001:193 JLINK_WriteReg(R4, 0x00000000)  returns 0x00 (0000ms, 0732ms total)
T0EC0 001:193 JLINK_WriteReg(R5, 0x00000000)  returns 0x00 (0000ms, 0732ms total)
T0EC0 001:193 JLINK_WriteReg(R6, 0x00000000)  returns 0x00 (0001ms, 0733ms total)
T0EC0 001:194 JLINK_WriteReg(R7, 0x00000000)  returns 0x00 (0000ms, 0733ms total)
T0EC0 001:194 JLINK_WriteReg(R8, 0x00000000)  returns 0x00 (0000ms, 0733ms total)
T0EC0 001:194 JLINK_WriteReg(R9, 0x2000017C)  returns 0x00 (0000ms, 0733ms total)
T0EC0 001:194 JLINK_WriteReg(R10, 0x00000000)  returns 0x00 (0000ms, 0733ms total)
T0EC0 001:194 JLINK_WriteReg(R11, 0x00000000)  returns 0x00 (0000ms, 0733ms total)
T0EC0 001:194 JLINK_WriteReg(R12, 0x00000000)  returns 0x00 (0000ms, 0733ms total)
T0EC0 001:194 JLINK_WriteReg(R13 (SP), 0x20001000)  returns 0x00 (0000ms, 0733ms total)
T0EC0 001:194 JLINK_WriteReg(R14, 0x20000001)  returns 0x00 (0000ms, 0733ms total)
T0EC0 001:194 JLINK_WriteReg(R15 (PC), 0x200000BC)  returns 0x00 (0000ms, 0733ms total)
T0EC0 001:194 JLINK_WriteReg(XPSR, 0x01000000)  returns 0x00 (0000ms, 0733ms total)
T0EC0 001:194 JLINK_WriteReg(MSP, 0x20001000)  returns 0x00 (0000ms, 0733ms total)
T0EC0 001:194 JLINK_WriteReg(PSP, 0x20001000)  returns 0x00 (0000ms, 0733ms total)
T0EC0 001:194 JLINK_WriteReg(CFBP, 0x00000000)  returns 0x00 (0000ms, 0733ms total)
T0EC0 001:195 JLINK_SetBPEx(Addr = 0x20000000, Type = 0xFFFFFFF2)  returns 0x00000003 (0000ms, 0734ms total)
T0EC0 001:195 JLINK_Go() (0002ms, 0736ms total)
T0EC0 001:197 JLINK_IsHalted()  returns FALSE (0001ms, 0737ms total)
T0EC0 001:366 JLINK_IsHalted()  returns FALSE (0000ms, 0736ms total)
T0EC0 001:374 JLINK_IsHalted()  returns FALSE (0000ms, 0736ms total)
T0EC0 001:376 JLINK_IsHalted()  returns FALSE (0000ms, 0736ms total)
T0EC0 001:378 JLINK_IsHalted()  returns FALSE (0001ms, 0737ms total)
T0EC0 001:380 JLINK_IsHalted()  returns FALSE (0001ms, 0737ms total)
T0EC0 001:382 JLINK_IsHalted()  returns FALSE (0001ms, 0737ms total)
T0EC0 001:384 JLINK_IsHalted()  returns FALSE (0001ms, 0737ms total)
T0EC0 001:386 JLINK_IsHalted()  returns FALSE (0001ms, 0737ms total)
T0EC0 001:389 JLINK_IsHalted()  returns FALSE (0001ms, 0737ms total)
T0EC0 001:391 JLINK_IsHalted()  returns FALSE (0001ms, 0737ms total)
T0EC0 001:394 JLINK_IsHalted()  returns FALSE (0001ms, 0737ms total)
T0EC0 001:397 JLINK_IsHalted()  returns FALSE (0001ms, 0737ms total)
T0EC0 001:405 JLINK_IsHalted()  returns FALSE (0001ms, 0737ms total)
T0EC0 001:407 JLINK_IsHalted()  returns FALSE (0001ms, 0737ms total)
T0EC0 001:410 JLINK_IsHalted()  returns FALSE (0000ms, 0736ms total)
T0EC0 001:425 JLINK_IsHalted()  returns FALSE (0001ms, 0737ms total)
T0EC0 001:428 JLINK_IsHalted()  returns FALSE (0001ms, 0737ms total)
T0EC0 001:436 JLINK_IsHalted()  returns FALSE (0001ms, 0737ms total)
T0EC0 001:439 JLINK_IsHalted()  returns FALSE (0001ms, 0737ms total)
T0EC0 001:442 JLINK_IsHalted()  returns FALSE (0001ms, 0737ms total)
T0EC0 001:445 JLINK_IsHalted()  returns FALSE (0001ms, 0737ms total)
T0EC0 001:448 JLINK_IsHalted()  returns FALSE (0001ms, 0737ms total)
T0EC0 001:451 JLINK_IsHalted()  returns FALSE (0001ms, 0737ms total)
T0EC0 001:453 JLINK_IsHalted()  returns FALSE (0001ms, 0737ms total)
T0EC0 001:456 JLINK_IsHalted()  returns FALSE (0001ms, 0737ms total)
T0EC0 001:750 JLINK_IsHalted() -- CPU_ReadMem(2 bytes @ 0x20000000)  returns TRUE (0003ms, 0739ms total)
T0EC0 001:753 JLINK_ReadReg(R15 (PC))  returns 0x20000000 (0000ms, 0736ms total)
T0EC0 001:753 JLINK_ClrBPEx(BPHandle = 0x00000003)  returns 0x00 (0000ms, 0736ms total)
T0EC0 001:753 JLINK_ReadReg(R0)  returns 0x00000000 (0000ms, 0736ms total)
T0EC0 001:756 JLINK_WriteReg(R0, 0x08004000)  returns 0x00 (0000ms, 0736ms total)
T0EC0 001:756 JLINK_WriteReg(R1, 0x00004000)  returns 0x00 (0000ms, 0736ms total)
T0EC0 001:756 JLINK_WriteReg(R2, 0x000000FF)  returns 0x00 (0000ms, 0736ms total)
T0EC0 001:756 JLINK_WriteReg(R3, 0x00000000)  returns 0x00 (0000ms, 0736ms total)
T0EC0 001:756 JLINK_WriteReg(R4, 0x00000000)  returns 0x00 (0000ms, 0736ms total)
T0EC0 001:756 JLINK_WriteReg(R5, 0x00000000)  returns 0x00 (0000ms, 0736ms total)
T0EC0 001:756 JLINK_WriteReg(R6, 0x00000000)  returns 0x00 (0000ms, 0736ms total)
T0EC0 001:756 JLINK_WriteReg(R7, 0x00000000)  returns 0x00 (0000ms, 0736ms total)
T0EC0 001:756 JLINK_WriteReg(R8, 0x00000000)  returns 0x00 (0000ms, 0736ms total)
T0EC0 001:756 JLINK_WriteReg(R9, 0x2000017C)  returns 0x00 (0000ms, 0736ms total)
T0EC0 001:756 JLINK_WriteReg(R10, 0x00000000)  returns 0x00 (0000ms, 0736ms total)
T0EC0 001:756 JLINK_WriteReg(R11, 0x00000000)  returns 0x00 (0001ms, 0737ms total)
T0EC0 001:757 JLINK_WriteReg(R12, 0x00000000)  returns 0x00 (0000ms, 0737ms total)
T0EC0 001:757 JLINK_WriteReg(R13 (SP), 0x20001000)  returns 0x00 (0000ms, 0737ms total)
T0EC0 001:757 JLINK_WriteReg(R14, 0x20000001)  returns 0x00 (0000ms, 0737ms total)
T0EC0 001:757 JLINK_WriteReg(R15 (PC), 0x20000020)  returns 0x00 (0000ms, 0737ms total)
T0EC0 001:757 JLINK_WriteReg(XPSR, 0x01000000)  returns 0x00 (0000ms, 0737ms total)
T0EC0 001:757 JLINK_WriteReg(MSP, 0x20001000)  returns 0x00 (0000ms, 0737ms total)
T0EC0 001:757 JLINK_WriteReg(PSP, 0x20001000)  returns 0x00 (0000ms, 0737ms total)
T0EC0 001:757 JLINK_WriteReg(CFBP, 0x00000000)  returns 0x00 (0000ms, 0737ms total)
T0EC0 001:757 JLINK_SetBPEx(Addr = 0x20000000, Type = 0xFFFFFFF2)  returns 0x00000004 (0000ms, 0737ms total)
T0EC0 001:757 JLINK_Go() (0002ms, 0739ms total)
T0EC0 001:759 JLINK_IsHalted() -- CPU_ReadMem(2 bytes @ 0x20000000)  returns TRUE (0004ms, 0743ms total)
T0EC0 001:763 JLINK_ReadReg(R15 (PC))  returns 0x20000000 (0000ms, 0739ms total)
T0EC0 001:763 JLINK_ClrBPEx(BPHandle = 0x00000004)  returns 0x00 (0000ms, 0739ms total)
T0EC0 001:763 JLINK_ReadReg(R0)  returns 0x00000001 (0000ms, 0739ms total)
T0EC0 001:763 JLINK_WriteReg(R0, 0x08004000)  returns 0x00 (0000ms, 0739ms total)
T0EC0 001:763 JLINK_WriteReg(R1, 0x00004000)  returns 0x00 (0000ms, 0739ms total)
T0EC0 001:763 JLINK_WriteReg(R2, 0x000000FF)  returns 0x00 (0000ms, 0739ms total)
T0EC0 001:763 JLINK_WriteReg(R3, 0x00000000)  returns 0x00 (0000ms, 0739ms total)
T0EC0 001:763 JLINK_WriteReg(R4, 0x00000000)  returns 0x00 (0000ms, 0739ms total)
T0EC0 001:764 JLINK_WriteReg(R5, 0x00000000)  returns 0x00 (0000ms, 0739ms total)
T0EC0 001:764 JLINK_WriteReg(R6, 0x00000000)  returns 0x00 (0000ms, 0739ms total)
T0EC0 001:764 JLINK_WriteReg(R7, 0x00000000)  returns 0x00 (0000ms, 0739ms total)
T0EC0 001:764 JLINK_WriteReg(R8, 0x00000000)  returns 0x00 (0000ms, 0739ms total)
T0EC0 001:764 JLINK_WriteReg(R9, 0x2000017C)  returns 0x00 (0000ms, 0739ms total)
T0EC0 001:764 JLINK_WriteReg(R10, 0x00000000)  returns 0x00 (0000ms, 0739ms total)
T0EC0 001:764 JLINK_WriteReg(R11, 0x00000000)  returns 0x00 (0000ms, 0739ms total)
T0EC0 001:764 JLINK_WriteReg(R12, 0x00000000)  returns 0x00 (0000ms, 0739ms total)
T0EC0 001:764 JLINK_WriteReg(R13 (SP), 0x20001000)  returns 0x00 (0000ms, 0739ms total)
T0EC0 001:764 JLINK_WriteReg(R14, 0x20000001)  returns 0x00 (0000ms, 0739ms total)
T0EC0 001:764 JLINK_WriteReg(R15 (PC), 0x200000BC)  returns 0x00 (0000ms, 0739ms total)
T0EC0 001:764 JLINK_WriteReg(XPSR, 0x01000000)  returns 0x00 (0000ms, 0739ms total)
T0EC0 001:765 JLINK_WriteReg(MSP, 0x20001000)  returns 0x00 (0000ms, 0740ms total)
T0EC0 001:765 JLINK_WriteReg(PSP, 0x20001000)  returns 0x00 (0000ms, 0740ms total)
T0EC0 001:765 JLINK_WriteReg(CFBP, 0x00000000)  returns 0x00 (0000ms, 0740ms total)
T0EC0 001:765 JLINK_SetBPEx(Addr = 0x20000000, Type = 0xFFFFFFF2)  returns 0x00000005 (0000ms, 0740ms total)
T0EC0 001:765 JLINK_Go() (0001ms, 0741ms total)
T0EC0 001:767 JLINK_IsHalted()  returns FALSE (0000ms, 0742ms total)
T0EC0 001:996 JLINK_IsHalted()  returns FALSE (0001ms, 0743ms total)
T0EC0 002:227 JLINK_IsHalted() -- CPU_ReadMem(2 bytes @ 0x20000000)  returns TRUE (0003ms, 0745ms total)
T0EC0 002:230 JLINK_ReadReg(R15 (PC))  returns 0x20000000 (0000ms, 0742ms total)
T0EC0 002:231 JLINK_ClrBPEx(BPHandle = 0x00000005)  returns 0x00 (0000ms, 0743ms total)
T0EC0 002:231 JLINK_ReadReg(R0)  returns 0x00000000 (0000ms, 0743ms total)
T0EC0 002:233 JLINK_WriteReg(R0, 0x08008000)  returns 0x00 (0000ms, 0743ms total)
T0EC0 002:233 JLINK_WriteReg(R1, 0x00004000)  returns 0x00 (0000ms, 0743ms total)
T0EC0 002:233 JLINK_WriteReg(R2, 0x000000FF)  returns 0x00 (0000ms, 0743ms total)
T0EC0 002:233 JLINK_WriteReg(R3, 0x00000000)  returns 0x00 (0000ms, 0743ms total)
T0EC0 002:233 JLINK_WriteReg(R4, 0x00000000)  returns 0x00 (0000ms, 0743ms total)
T0EC0 002:233 JLINK_WriteReg(R5, 0x00000000)  returns 0x00 (0000ms, 0743ms total)
T0EC0 002:233 JLINK_WriteReg(R6, 0x00000000)  returns 0x00 (0000ms, 0743ms total)
T0EC0 002:233 JLINK_WriteReg(R7, 0x00000000)  returns 0x00 (0000ms, 0743ms total)
T0EC0 002:233 JLINK_WriteReg(R8, 0x00000000)  returns 0x00 (0000ms, 0743ms total)
T0EC0 002:233 JLINK_WriteReg(R9, 0x2000017C)  returns 0x00 (0001ms, 0744ms total)
T0EC0 002:234 JLINK_WriteReg(R10, 0x00000000)  returns 0x00 (0000ms, 0744ms total)
T0EC0 002:234 JLINK_WriteReg(R11, 0x00000000)  returns 0x00 (0000ms, 0744ms total)
T0EC0 002:234 JLINK_WriteReg(R12, 0x00000000)  returns 0x00 (0000ms, 0744ms total)
T0EC0 002:234 JLINK_WriteReg(R13 (SP), 0x20001000)  returns 0x00 (0000ms, 0744ms total)
T0EC0 002:234 JLINK_WriteReg(R14, 0x20000001)  returns 0x00 (0000ms, 0744ms total)
T0EC0 002:234 JLINK_WriteReg(R15 (PC), 0x20000020)  returns 0x00 (0000ms, 0744ms total)
T0EC0 002:234 JLINK_WriteReg(XPSR, 0x01000000)  returns 0x00 (0000ms, 0744ms total)
T0EC0 002:234 JLINK_WriteReg(MSP, 0x20001000)  returns 0x00 (0000ms, 0744ms total)
T0EC0 002:234 JLINK_WriteReg(PSP, 0x20001000)  returns 0x00 (0001ms, 0745ms total)
T0EC0 002:235 JLINK_WriteReg(CFBP, 0x00000000)  returns 0x00 (0000ms, 0745ms total)
T0EC0 002:235 JLINK_SetBPEx(Addr = 0x20000000, Type = 0xFFFFFFF2)  returns 0x00000006 (0000ms, 0745ms total)
T0EC0 002:235 JLINK_Go() (0001ms, 0746ms total)
T0EC0 002:237 JLINK_IsHalted() -- CPU_ReadMem(2 bytes @ 0x20000000)  returns TRUE (0004ms, 0751ms total)
T0EC0 002:241 JLINK_ReadReg(R15 (PC))  returns 0x20000000 (0000ms, 0747ms total)
T0EC0 002:241 JLINK_ClrBPEx(BPHandle = 0x00000006)  returns 0x00 (0000ms, 0747ms total)
T0EC0 002:241 JLINK_ReadReg(R0)  returns 0x00000001 (0000ms, 0747ms total)
T0EC0 002:241 JLINK_WriteReg(R0, 0x08008000)  returns 0x00 (0000ms, 0747ms total)
T0EC0 002:241 JLINK_WriteReg(R1, 0x00004000)  returns 0x00 (0000ms, 0747ms total)
T0EC0 002:241 JLINK_WriteReg(R2, 0x000000FF)  returns 0x00 (0000ms, 0747ms total)
T0EC0 002:241 JLINK_WriteReg(R3, 0x00000000)  returns 0x00 (0000ms, 0747ms total)
T0EC0 002:241 JLINK_WriteReg(R4, 0x00000000)  returns 0x00 (0000ms, 0747ms total)
T0EC0 002:241 JLINK_WriteReg(R5, 0x00000000)  returns 0x00 (0000ms, 0747ms total)
T0EC0 002:241 JLINK_WriteReg(R6, 0x00000000)  returns 0x00 (0000ms, 0747ms total)
T0EC0 002:241 JLINK_WriteReg(R7, 0x00000000)  returns 0x00 (0000ms, 0747ms total)
T0EC0 002:241 JLINK_WriteReg(R8, 0x00000000)  returns 0x00 (0001ms, 0748ms total)
T0EC0 002:242 JLINK_WriteReg(R9, 0x2000017C)  returns 0x00 (0000ms, 0748ms total)
T0EC0 002:242 JLINK_WriteReg(R10, 0x00000000)  returns 0x00 (0000ms, 0748ms total)
T0EC0 002:242 JLINK_WriteReg(R11, 0x00000000)  returns 0x00 (0000ms, 0748ms total)
T0EC0 002:242 JLINK_WriteReg(R12, 0x00000000)  returns 0x00 (0000ms, 0748ms total)
T0EC0 002:242 JLINK_WriteReg(R13 (SP), 0x20001000)  returns 0x00 (0000ms, 0748ms total)
T0EC0 002:242 JLINK_WriteReg(R14, 0x20000001)  returns 0x00 (0000ms, 0748ms total)
T0EC0 002:242 JLINK_WriteReg(R15 (PC), 0x200000BC)  returns 0x00 (0000ms, 0748ms total)
T0EC0 002:242 JLINK_WriteReg(XPSR, 0x01000000)  returns 0x00 (0000ms, 0748ms total)
T0EC0 002:242 JLINK_WriteReg(MSP, 0x20001000)  returns 0x00 (0000ms, 0748ms total)
T0EC0 002:242 JLINK_WriteReg(PSP, 0x20001000)  returns 0x00 (0000ms, 0748ms total)
T0EC0 002:242 JLINK_WriteReg(CFBP, 0x00000000)  returns 0x00 (0000ms, 0748ms total)
T0EC0 002:242 JLINK_SetBPEx(Addr = 0x20000000, Type = 0xFFFFFFF2)  returns 0x00000007 (0000ms, 0748ms total)
T0EC0 002:242 JLINK_Go() (0003ms, 0751ms total)
T0EC0 002:245 JLINK_IsHalted()  returns FALSE (0000ms, 0751ms total)
T0EC0 002:318 JLINK_IsHalted()  returns FALSE (0000ms, 0751ms total)
T0EC0 002:320 JLINK_IsHalted()  returns FALSE (0000ms, 0751ms total)
T0EC0 002:328 JLINK_IsHalted()  returns FALSE (0000ms, 0751ms total)
T0EC0 002:330 JLINK_IsHalted()  returns FALSE (0000ms, 0751ms total)
T0EC0 002:332 JLINK_IsHalted()  returns FALSE (0000ms, 0751ms total)
T0EC0 002:375 JLINK_IsHalted()  returns FALSE (0000ms, 0751ms total)
T0EC0 002:377 JLINK_IsHalted()  returns FALSE (0000ms, 0751ms total)
T0EC0 002:379 JLINK_IsHalted()  returns FALSE (0000ms, 0751ms total)
T0EC0 002:385 JLINK_IsHalted()  returns FALSE (0000ms, 0751ms total)
T0EC0 002:387 JLINK_IsHalted()  returns FALSE (0000ms, 0751ms total)
T0EC0 002:389 JLINK_IsHalted()  returns FALSE (0000ms, 0751ms total)
T0EC0 002:391 JLINK_IsHalted()  returns FALSE (0000ms, 0751ms total)
T0EC0 002:393 JLINK_IsHalted()  returns FALSE (0000ms, 0751ms total)
T0EC0 002:402 JLINK_IsHalted()  returns FALSE (0000ms, 0751ms total)
T0EC0 002:404 JLINK_IsHalted()  returns FALSE (0000ms, 0751ms total)
T0EC0 002:406 JLINK_IsHalted()  returns FALSE (0000ms, 0751ms total)
T0EC0 002:408 JLINK_IsHalted()  returns FALSE (0000ms, 0751ms total)
T0EC0 002:410 JLINK_IsHalted()  returns FALSE (0000ms, 0751ms total)
T0EC0 002:417 JLINK_IsHalted()  returns FALSE (0000ms, 0751ms total)
T0EC0 002:419 JLINK_IsHalted()  returns FALSE (0000ms, 0751ms total)
T0EC0 002:421 JLINK_IsHalted()  returns FALSE (0001ms, 0752ms total)
T0EC0 002:427 JLINK_IsHalted()  returns FALSE (0000ms, 0751ms total)
T0EC0 002:429 JLINK_IsHalted()  returns FALSE (0000ms, 0751ms total)
T0EC0 002:431 JLINK_IsHalted()  returns FALSE (0001ms, 0752ms total)
T0EC0 002:433 JLINK_IsHalted()  returns FALSE (0000ms, 0751ms total)
T0EC0 002:435 JLINK_IsHalted()  returns FALSE (0000ms, 0752ms total)
T0EC0 002:437 JLINK_IsHalted()  returns FALSE (0000ms, 0752ms total)
T0EC0 002:443 JLINK_IsHalted()  returns FALSE (0001ms, 0753ms total)
T0EC0 002:472 JLINK_IsHalted()  returns FALSE (0000ms, 0752ms total)
T0EC0 002:480 JLINK_IsHalted()  returns FALSE (0000ms, 0752ms total)
T0EC0 002:482 JLINK_IsHalted()  returns FALSE (0001ms, 0753ms total)
T0EC0 002:484 JLINK_IsHalted()  returns FALSE (0001ms, 0753ms total)
T0EC0 002:487 JLINK_IsHalted()  returns FALSE (0000ms, 0752ms total)
T0EC0 002:489 JLINK_IsHalted()  returns FALSE (0001ms, 0753ms total)
T0EC0 002:491 JLINK_IsHalted()  returns FALSE (0000ms, 0752ms total)
T0EC0 002:497 JLINK_IsHalted()  returns FALSE (0001ms, 0753ms total)
T0EC0 002:499 JLINK_IsHalted()  returns FALSE (0001ms, 0753ms total)
T0EC0 002:502 JLINK_IsHalted()  returns FALSE (0000ms, 0752ms total)
T0EC0 002:504 JLINK_IsHalted()  returns FALSE (0000ms, 0752ms total)
T0EC0 002:514 JLINK_IsHalted()  returns FALSE (0000ms, 0752ms total)
T0EC0 002:516 JLINK_IsHalted()  returns FALSE (0000ms, 0752ms total)
T0EC0 002:518 JLINK_IsHalted()  returns FALSE (0001ms, 0753ms total)
T0EC0 002:520 JLINK_IsHalted()  returns FALSE (0001ms, 0753ms total)
T0EC0 002:526 JLINK_IsHalted()  returns FALSE (0001ms, 0753ms total)
T0EC0 002:528 JLINK_IsHalted()  returns FALSE (0001ms, 0753ms total)
T0EC0 002:531 JLINK_IsHalted()  returns FALSE (0000ms, 0752ms total)
T0EC0 002:533 JLINK_IsHalted()  returns FALSE (0000ms, 0752ms total)
T0EC0 002:535 JLINK_IsHalted()  returns FALSE (0000ms, 0752ms total)
T0EC0 002:537 JLINK_IsHalted()  returns FALSE (0000ms, 0752ms total)
T0EC0 002:539 JLINK_IsHalted()  returns FALSE (0000ms, 0752ms total)
T0EC0 002:541 JLINK_IsHalted()  returns FALSE (0000ms, 0752ms total)
T0EC0 002:543 JLINK_IsHalted()  returns FALSE (0000ms, 0752ms total)
T0EC0 002:545 JLINK_IsHalted()  returns FALSE (0000ms, 0752ms total)
T0EC0 002:547 JLINK_IsHalted()  returns FALSE (0000ms, 0752ms total)
T0EC0 002:549 JLINK_IsHalted()  returns FALSE (0001ms, 0753ms total)
T0EC0 002:565 JLINK_IsHalted()  returns FALSE (0001ms, 0753ms total)
T0EC0 002:568 JLINK_IsHalted()  returns FALSE (0001ms, 0753ms total)
T0EC0 002:574 JLINK_IsHalted()  returns FALSE (0000ms, 0752ms total)
T0EC0 002:576 JLINK_IsHalted()  returns FALSE (0001ms, 0753ms total)
T0EC0 002:579 JLINK_IsHalted()  returns FALSE (0001ms, 0753ms total)
T0EC0 002:581 JLINK_IsHalted()  returns FALSE (0001ms, 0753ms total)
T0EC0 002:584 JLINK_IsHalted()  returns FALSE (0000ms, 0752ms total)
T0EC0 002:586 JLINK_IsHalted()  returns FALSE (0001ms, 0753ms total)
T0EC0 002:588 JLINK_IsHalted()  returns FALSE (0001ms, 0753ms total)
T0EC0 002:590 JLINK_IsHalted()  returns FALSE (0001ms, 0753ms total)
T0EC0 002:592 JLINK_IsHalted()  returns FALSE (0001ms, 0753ms total)
T0EC0 002:595 JLINK_IsHalted()  returns FALSE (0001ms, 0753ms total)
T0EC0 002:597 JLINK_IsHalted()  returns FALSE (0000ms, 0752ms total)
T0EC0 002:608 JLINK_IsHalted() -- CPU_ReadMem(2 bytes @ 0x20000000)  returns TRUE (0003ms, 0755ms total)
T0EC0 002:611 JLINK_ReadReg(R15 (PC))  returns 0x20000000 (0000ms, 0752ms total)
T0EC0 002:611 JLINK_ClrBPEx(BPHandle = 0x00000007)  returns 0x00 (0001ms, 0753ms total)
T0EC0 002:612 JLINK_ReadReg(R0)  returns 0x00000000 (0000ms, 0753ms total)
T0EC0 002:613 JLINK_WriteReg(R0, 0x00000001)  returns 0x00 (0000ms, 0753ms total)
T0EC0 002:613 JLINK_WriteReg(R1, 0x00004000)  returns 0x00 (0000ms, 0753ms total)
T0EC0 002:613 JLINK_WriteReg(R2, 0x000000FF)  returns 0x00 (0000ms, 0753ms total)
T0EC0 002:613 JLINK_WriteReg(R3, 0x00000000)  returns 0x00 (0000ms, 0753ms total)
T0EC0 002:613 JLINK_WriteReg(R4, 0x00000000)  returns 0x00 (0000ms, 0753ms total)
T0EC0 002:613 JLINK_WriteReg(R5, 0x00000000)  returns 0x00 (0000ms, 0753ms total)
T0EC0 002:613 JLINK_WriteReg(R6, 0x00000000)  returns 0x00 (0000ms, 0753ms total)
T0EC0 002:613 JLINK_WriteReg(R7, 0x00000000)  returns 0x00 (0000ms, 0753ms total)
T0EC0 002:613 JLINK_WriteReg(R8, 0x00000000)  returns 0x00 (0000ms, 0753ms total)
T0EC0 002:613 JLINK_WriteReg(R9, 0x2000017C)  returns 0x00 (0000ms, 0753ms total)
T0EC0 002:613 JLINK_WriteReg(R10, 0x00000000)  returns 0x00 (0000ms, 0753ms total)
T0EC0 002:613 JLINK_WriteReg(R11, 0x00000000)  returns 0x00 (0000ms, 0753ms total)
T0EC0 002:613 JLINK_WriteReg(R12, 0x00000000)  returns 0x00 (0000ms, 0753ms total)
T0EC0 002:614 JLINK_WriteReg(R13 (SP), 0x20001000)  returns 0x00 (0000ms, 0754ms total)
T0EC0 002:614 JLINK_WriteReg(R14, 0x20000001)  returns 0x00 (0000ms, 0754ms total)
T0EC0 002:614 JLINK_WriteReg(R15 (PC), 0x20000082)  returns 0x00 (0000ms, 0754ms total)
T0EC0 002:614 JLINK_WriteReg(XPSR, 0x01000000)  returns 0x00 (0000ms, 0754ms total)
T0EC0 002:614 JLINK_WriteReg(MSP, 0x20001000)  returns 0x00 (0000ms, 0754ms total)
T0EC0 002:614 JLINK_WriteReg(PSP, 0x20001000)  returns 0x00 (0000ms, 0754ms total)
T0EC0 002:614 JLINK_WriteReg(CFBP, 0x00000000)  returns 0x00 (0000ms, 0754ms total)
T0EC0 002:614 JLINK_SetBPEx(Addr = 0x20000000, Type = 0xFFFFFFF2)  returns 0x00000008 (0000ms, 0754ms total)
T0EC0 002:614 JLINK_Go() (0002ms, 0756ms total)
T0EC0 002:616 JLINK_IsHalted() -- CPU_ReadMem(2 bytes @ 0x20000000)  returns TRUE (0004ms, 0760ms total)
T0EC0 002:620 JLINK_ReadReg(R15 (PC))  returns 0x20000000 (0000ms, 0756ms total)
T0EC0 002:620 JLINK_ClrBPEx(BPHandle = 0x00000008)  returns 0x00 (0000ms, 0756ms total)
T0EC0 002:620 JLINK_ReadReg(R0)  returns 0x00000000 (0000ms, 0756ms total)
T0EC0 002:690 JLINK_WriteMem(0x20000000, 0x0180 Bytes, ...) - Data: 00 BE 0A E0 0D 78 2D 06 68 40 08 24 40 00 00 D3 ... -- CPU_WriteMem(384 bytes @ 0x20000000)  returns 0x180 (0003ms, 0759ms total)
T0EC0 002:693 JLINK_WriteReg(R0, 0x08000000)  returns 0x00 (0000ms, 0759ms total)
T0EC0 002:693 JLINK_WriteReg(R1, 0x017D7840)  returns 0x00 (0000ms, 0759ms total)
T0EC0 002:693 JLINK_WriteReg(R2, 0x00000002)  returns 0x00 (0000ms, 0759ms total)
T0EC0 002:693 JLINK_WriteReg(R3, 0x00000000)  returns 0x00 (0000ms, 0759ms total)
T0EC0 002:693 JLINK_WriteReg(R4, 0x00000000)  returns 0x00 (0000ms, 0759ms total)
T0EC0 002:693 JLINK_WriteReg(R5, 0x00000000)  returns 0x00 (0000ms, 0759ms total)
T0EC0 002:693 JLINK_WriteReg(R6, 0x00000000)  returns 0x00 (0000ms, 0759ms total)
T0EC0 002:693 JLINK_WriteReg(R7, 0x00000000)  returns 0x00 (0001ms, 0760ms total)
T0EC0 002:694 JLINK_WriteReg(R8, 0x00000000)  returns 0x00 (0000ms, 0760ms total)
T0EC0 002:694 JLINK_WriteReg(R9, 0x2000017C)  returns 0x00 (0000ms, 0760ms total)
T0EC0 002:694 JLINK_WriteReg(R10, 0x00000000)  returns 0x00 (0000ms, 0760ms total)
T0EC0 002:694 JLINK_WriteReg(R11, 0x00000000)  returns 0x00 (0000ms, 0760ms total)
T0EC0 002:694 JLINK_WriteReg(R12, 0x00000000)  returns 0x00 (0000ms, 0760ms total)
T0EC0 002:694 JLINK_WriteReg(R13 (SP), 0x20001000)  returns 0x00 (0000ms, 0760ms total)
T0EC0 002:694 JLINK_WriteReg(R14, 0x20000001)  returns 0x00 (0000ms, 0760ms total)
T0EC0 002:694 JLINK_WriteReg(R15 (PC), 0x20000054)  returns 0x00 (0000ms, 0760ms total)
T0EC0 002:694 JLINK_WriteReg(XPSR, 0x01000000)  returns 0x00 (0000ms, 0760ms total)
T0EC0 002:694 JLINK_WriteReg(MSP, 0x20001000)  returns 0x00 (0000ms, 0760ms total)
T0EC0 002:694 JLINK_WriteReg(PSP, 0x20001000)  returns 0x00 (0000ms, 0760ms total)
T0EC0 002:694 JLINK_WriteReg(CFBP, 0x00000000)  returns 0x00 (0000ms, 0760ms total)
T0EC0 002:694 JLINK_SetBPEx(Addr = 0x20000000, Type = 0xFFFFFFF2) -- CPU_ReadMem(4 bytes @ 0x20000000) -- CPU_WriteMem(4 bytes @ 0x20000000) -- CPU_ReadMem(4 bytes @ 0x20000000) -- CPU_WriteMem(4 bytes @ 0x20000000) -- CPU_ReadMem(2 bytes @ 0x20000000)  returns 0x00000009 (0004ms, 0764ms total)
T0EC0 002:698 JLINK_Go() -- CPU_WriteMem(2 bytes @ 0x20000000) (0002ms, 0766ms total)
T0EC0 002:700 JLINK_IsHalted() -- CPU_ReadMem(2 bytes @ 0x20000000)  returns TRUE (0004ms, 0770ms total)
T0EC0 002:704 JLINK_ReadReg(R15 (PC))  returns 0x20000000 (0000ms, 0766ms total)
T0EC0 002:704 JLINK_ClrBPEx(BPHandle = 0x00000009)  returns 0x00 (0000ms, 0766ms total)
T0EC0 002:704 JLINK_ReadReg(R0)  returns 0x00000000 (0000ms, 0766ms total)
T0EC0 002:705 JLINK_WriteMem(0x20000180, 0x0400 Bytes, ...) - Data: F0 06 00 20 29 1C 00 08 71 02 00 08 73 02 00 08 ... -- CPU_WriteMem(1024 bytes @ 0x20000180)  returns 0x400 (0007ms, 0773ms total)
T0EC0 002:712 JLINK_WriteReg(R0, 0x08000000)  returns 0x00 (0000ms, 0773ms total)
T0EC0 002:712 JLINK_WriteReg(R1, 0x00000400)  returns 0x00 (0000ms, 0773ms total)
T0EC0 002:712 JLINK_WriteReg(R2, 0x20000180)  returns 0x00 (0000ms, 0773ms total)
T0EC0 002:712 JLINK_WriteReg(R3, 0x00000000)  returns 0x00 (0000ms, 0773ms total)
T0EC0 002:712 JLINK_WriteReg(R4, 0x00000000)  returns 0x00 (0001ms, 0774ms total)
T0EC0 002:713 JLINK_WriteReg(R5, 0x00000000)  returns 0x00 (0000ms, 0774ms total)
T0EC0 002:713 JLINK_WriteReg(R6, 0x00000000)  returns 0x00 (0000ms, 0774ms total)
T0EC0 002:713 JLINK_WriteReg(R7, 0x00000000)  returns 0x00 (0000ms, 0774ms total)
T0EC0 002:713 JLINK_WriteReg(R8, 0x00000000)  returns 0x00 (0000ms, 0774ms total)
T0EC0 002:713 JLINK_WriteReg(R9, 0x2000017C)  returns 0x00 (0000ms, 0774ms total)
T0EC0 002:713 JLINK_WriteReg(R10, 0x00000000)  returns 0x00 (0000ms, 0774ms total)
T0EC0 002:713 JLINK_WriteReg(R11, 0x00000000)  returns 0x00 (0000ms, 0774ms total)
T0EC0 002:713 JLINK_WriteReg(R12, 0x00000000)  returns 0x00 (0000ms, 0774ms total)
T0EC0 002:713 JLINK_WriteReg(R13 (SP), 0x20001000)  returns 0x00 (0000ms, 0774ms total)
T0EC0 002:713 JLINK_WriteReg(R14, 0x20000001)  returns 0x00 (0000ms, 0774ms total)
T0EC0 002:713 JLINK_WriteReg(R15 (PC), 0x20000108)  returns 0x00 (0000ms, 0774ms total)
T0EC0 002:713 JLINK_WriteReg(XPSR, 0x01000000)  returns 0x00 (0000ms, 0774ms total)
T0EC0 002:713 JLINK_WriteReg(MSP, 0x20001000)  returns 0x00 (0000ms, 0774ms total)
T0EC0 002:713 JLINK_WriteReg(PSP, 0x20001000)  returns 0x00 (0000ms, 0774ms total)
T0EC0 002:713 JLINK_WriteReg(CFBP, 0x00000000)  returns 0x00 (0000ms, 0774ms total)
T0EC0 002:714 JLINK_SetBPEx(Addr = 0x20000000, Type = 0xFFFFFFF2)  returns 0x0000000A (0000ms, 0774ms total)
T0EC0 002:714 JLINK_Go() (0002ms, 0776ms total)
T0EC0 002:716 JLINK_IsHalted()  returns FALSE (0000ms, 0776ms total)
T0EC0 002:773 JLINK_IsHalted() -- CPU_ReadMem(2 bytes @ 0x20000000)  returns TRUE (0003ms, 0779ms total)
T0EC0 002:776 JLINK_ReadReg(R15 (PC))  returns 0x20000000 (0001ms, 0777ms total)
T0EC0 002:777 JLINK_ClrBPEx(BPHandle = 0x0000000A)  returns 0x00 (0000ms, 0777ms total)
T0EC0 002:777 JLINK_ReadReg(R0)  returns 0x00000000 (0000ms, 0777ms total)
T0EC0 002:779 JLINK_WriteMem(0x20000180, 0x0400 Bytes, ...) - Data: 28 4D 08 35 2D 68 05 F0 0C 00 20 B1 04 28 06 D0 ... -- CPU_WriteMem(1024 bytes @ 0x20000180)  returns 0x400 (0007ms, 0784ms total)
T0EC0 002:786 JLINK_WriteReg(R0, 0x08000400)  returns 0x00 (0000ms, 0784ms total)
T0EC0 002:786 JLINK_WriteReg(R1, 0x00000400)  returns 0x00 (0000ms, 0784ms total)
T0EC0 002:786 JLINK_WriteReg(R2, 0x20000180)  returns 0x00 (0000ms, 0784ms total)
T0EC0 002:786 JLINK_WriteReg(R3, 0x00000000)  returns 0x00 (0000ms, 0784ms total)
T0EC0 002:786 JLINK_WriteReg(R4, 0x00000000)  returns 0x00 (0000ms, 0784ms total)
T0EC0 002:786 JLINK_WriteReg(R5, 0x00000000)  returns 0x00 (0000ms, 0784ms total)
T0EC0 002:786 JLINK_WriteReg(R6, 0x00000000)  returns 0x00 (0000ms, 0784ms total)
T0EC0 002:786 JLINK_WriteReg(R7, 0x00000000)  returns 0x00 (0000ms, 0784ms total)
T0EC0 002:786 JLINK_WriteReg(R8, 0x00000000)  returns 0x00 (0000ms, 0784ms total)
T0EC0 002:786 JLINK_WriteReg(R9, 0x2000017C)  returns 0x00 (0000ms, 0784ms total)
T0EC0 002:786 JLINK_WriteReg(R10, 0x00000000)  returns 0x00 (0000ms, 0784ms total)
T0EC0 002:786 JLINK_WriteReg(R11, 0x00000000)  returns 0x00 (0000ms, 0784ms total)
T0EC0 002:786 JLINK_WriteReg(R12, 0x00000000)  returns 0x00 (0000ms, 0784ms total)
T0EC0 002:786 JLINK_WriteReg(R13 (SP), 0x20001000)  returns 0x00 (0001ms, 0785ms total)
T0EC0 002:787 JLINK_WriteReg(R14, 0x20000001)  returns 0x00 (0000ms, 0785ms total)
T0EC0 002:787 JLINK_WriteReg(R15 (PC), 0x20000108)  returns 0x00 (0000ms, 0785ms total)
T0EC0 002:787 JLINK_WriteReg(XPSR, 0x01000000)  returns 0x00 (0000ms, 0785ms total)
T0EC0 002:787 JLINK_WriteReg(MSP, 0x20001000)  returns 0x00 (0000ms, 0785ms total)
T0EC0 002:787 JLINK_WriteReg(PSP, 0x20001000)  returns 0x00 (0000ms, 0785ms total)
T0EC0 002:787 JLINK_WriteReg(CFBP, 0x00000000)  returns 0x00 (0000ms, 0785ms total)
T0EC0 002:787 JLINK_SetBPEx(Addr = 0x20000000, Type = 0xFFFFFFF2)  returns 0x0000000B (0000ms, 0785ms total)
T0EC0 002:787 JLINK_Go() (0002ms, 0787ms total)
T0EC0 002:789 JLINK_IsHalted()  returns FALSE (0000ms, 0787ms total)
T0EC0 002:810 JLINK_IsHalted() -- CPU_ReadMem(2 bytes @ 0x20000000)  returns TRUE (0004ms, 0791ms total)
T0EC0 002:814 JLINK_ReadReg(R15 (PC))  returns 0x20000000 (0000ms, 0787ms total)
T0EC0 002:814 JLINK_ClrBPEx(BPHandle = 0x0000000B)  returns 0x00 (0000ms, 0787ms total)
T0EC0 002:814 JLINK_ReadReg(R0)  returns 0x00000000 (0000ms, 0787ms total)
T0EC0 002:815 JLINK_WriteMem(0x20000180, 0x0400 Bytes, ...) - Data: 00 68 80 F4 80 50 6C 49 08 60 08 46 00 68 80 F4 ... -- CPU_WriteMem(1024 bytes @ 0x20000180)  returns 0x400 (0007ms, 0794ms total)
T0EC0 002:822 JLINK_WriteReg(R0, 0x08000800)  returns 0x00 (0000ms, 0794ms total)
T0EC0 002:822 JLINK_WriteReg(R1, 0x00000400)  returns 0x00 (0000ms, 0794ms total)
T0EC0 002:822 JLINK_WriteReg(R2, 0x20000180)  returns 0x00 (0000ms, 0794ms total)
T0EC0 002:822 JLINK_WriteReg(R3, 0x00000000)  returns 0x00 (0000ms, 0794ms total)
T0EC0 002:822 JLINK_WriteReg(R4, 0x00000000)  returns 0x00 (0000ms, 0794ms total)
T0EC0 002:822 JLINK_WriteReg(R5, 0x00000000)  returns 0x00 (0001ms, 0795ms total)
T0EC0 002:823 JLINK_WriteReg(R6, 0x00000000)  returns 0x00 (0000ms, 0795ms total)
T0EC0 002:823 JLINK_WriteReg(R7, 0x00000000)  returns 0x00 (0000ms, 0795ms total)
T0EC0 002:823 JLINK_WriteReg(R8, 0x00000000)  returns 0x00 (0000ms, 0795ms total)
T0EC0 002:823 JLINK_WriteReg(R9, 0x2000017C)  returns 0x00 (0000ms, 0795ms total)
T0EC0 002:823 JLINK_WriteReg(R10, 0x00000000)  returns 0x00 (0000ms, 0795ms total)
T0EC0 002:823 JLINK_WriteReg(R11, 0x00000000)  returns 0x00 (0000ms, 0795ms total)
T0EC0 002:823 JLINK_WriteReg(R12, 0x00000000)  returns 0x00 (0000ms, 0795ms total)
T0EC0 002:823 JLINK_WriteReg(R13 (SP), 0x20001000)  returns 0x00 (0000ms, 0795ms total)
T0EC0 002:823 JLINK_WriteReg(R14, 0x20000001)  returns 0x00 (0000ms, 0795ms total)
T0EC0 002:823 JLINK_WriteReg(R15 (PC), 0x20000108)  returns 0x00 (0000ms, 0795ms total)
T0EC0 002:823 JLINK_WriteReg(XPSR, 0x01000000)  returns 0x00 (0000ms, 0795ms total)
T0EC0 002:823 JLINK_WriteReg(MSP, 0x20001000)  returns 0x00 (0000ms, 0795ms total)
T0EC0 002:823 JLINK_WriteReg(PSP, 0x20001000)  returns 0x00 (0000ms, 0795ms total)
T0EC0 002:823 JLINK_WriteReg(CFBP, 0x00000000)  returns 0x00 (0000ms, 0795ms total)
T0EC0 002:823 JLINK_SetBPEx(Addr = 0x20000000, Type = 0xFFFFFFF2)  returns 0x0000000C (0000ms, 0795ms total)
T0EC0 002:823 JLINK_Go() (0002ms, 0797ms total)
T0EC0 002:826 JLINK_IsHalted()  returns FALSE (0000ms, 0798ms total)
T0EC0 002:832 JLINK_IsHalted() -- CPU_ReadMem(2 bytes @ 0x20000000)  returns TRUE (0004ms, 0802ms total)
T0EC0 002:836 JLINK_ReadReg(R15 (PC))  returns 0x20000000 (0000ms, 0798ms total)
T0EC0 002:836 JLINK_ClrBPEx(BPHandle = 0x0000000C)  returns 0x00 (0000ms, 0798ms total)
T0EC0 002:836 JLINK_ReadReg(R0)  returns 0x00000000 (0000ms, 0798ms total)
T0EC0 002:838 JLINK_WriteMem(0x20000180, 0x0400 Bytes, ...) - Data: 1A 60 01 22 F7 4B 0C 3B 1A 60 00 22 F4 4B C3 F8 ... -- CPU_WriteMem(1024 bytes @ 0x20000180)  returns 0x400 (0007ms, 0805ms total)
T0EC0 002:845 JLINK_WriteReg(R0, 0x08000C00)  returns 0x00 (0000ms, 0805ms total)
T0EC0 002:845 JLINK_WriteReg(R1, 0x00000400)  returns 0x00 (0000ms, 0805ms total)
T0EC0 002:845 JLINK_WriteReg(R2, 0x20000180)  returns 0x00 (0000ms, 0805ms total)
T0EC0 002:845 JLINK_WriteReg(R3, 0x00000000)  returns 0x00 (0000ms, 0805ms total)
T0EC0 002:845 JLINK_WriteReg(R4, 0x00000000)  returns 0x00 (0000ms, 0805ms total)
T0EC0 002:845 JLINK_WriteReg(R5, 0x00000000)  returns 0x00 (0000ms, 0805ms total)
T0EC0 002:845 JLINK_WriteReg(R6, 0x00000000)  returns 0x00 (0000ms, 0805ms total)
T0EC0 002:845 JLINK_WriteReg(R7, 0x00000000)  returns 0x00 (0000ms, 0805ms total)
T0EC0 002:845 JLINK_WriteReg(R8, 0x00000000)  returns 0x00 (0000ms, 0805ms total)
T0EC0 002:845 JLINK_WriteReg(R9, 0x2000017C)  returns 0x00 (0000ms, 0805ms total)
T0EC0 002:845 JLINK_WriteReg(R10, 0x00000000)  returns 0x00 (0000ms, 0805ms total)
T0EC0 002:845 JLINK_WriteReg(R11, 0x00000000)  returns 0x00 (0000ms, 0805ms total)
T0EC0 002:845 JLINK_WriteReg(R12, 0x00000000)  returns 0x00 (0000ms, 0805ms total)
T0EC0 002:846 JLINK_WriteReg(R13 (SP), 0x20001000)  returns 0x00 (0000ms, 0806ms total)
T0EC0 002:846 JLINK_WriteReg(R14, 0x20000001)  returns 0x00 (0000ms, 0806ms total)
T0EC0 002:846 JLINK_WriteReg(R15 (PC), 0x20000108)  returns 0x00 (0000ms, 0806ms total)
T0EC0 002:846 JLINK_WriteReg(XPSR, 0x01000000)  returns 0x00 (0000ms, 0806ms total)
T0EC0 002:846 JLINK_WriteReg(MSP, 0x20001000)  returns 0x00 (0000ms, 0806ms total)
T0EC0 002:846 JLINK_WriteReg(PSP, 0x20001000)  returns 0x00 (0000ms, 0806ms total)
T0EC0 002:846 JLINK_WriteReg(CFBP, 0x00000000)  returns 0x00 (0000ms, 0806ms total)
T0EC0 002:846 JLINK_SetBPEx(Addr = 0x20000000, Type = 0xFFFFFFF2)  returns 0x0000000D (0000ms, 0806ms total)
T0EC0 002:846 JLINK_Go() (0002ms, 0808ms total)
T0EC0 002:848 JLINK_IsHalted()  returns FALSE (0000ms, 0808ms total)
T0EC0 002:861 JLINK_IsHalted() -- CPU_ReadMem(2 bytes @ 0x20000000)  returns TRUE (0004ms, 0812ms total)
T0EC0 002:865 JLINK_ReadReg(R15 (PC))  returns 0x20000000 (0000ms, 0808ms total)
T0EC0 002:865 JLINK_ClrBPEx(BPHandle = 0x0000000D)  returns 0x00 (0000ms, 0808ms total)
T0EC0 002:865 JLINK_ReadReg(R0)  returns 0x00000000 (0000ms, 0808ms total)
T0EC0 002:866 JLINK_WriteMem(0x20000180, 0x0400 Bytes, ...) - Data: 69 46 30 46 FF F7 D1 FF 0D F1 01 04 08 E0 22 46 ... -- CPU_WriteMem(1024 bytes @ 0x20000180)  returns 0x400 (0007ms, 0815ms total)
T0EC0 002:873 JLINK_WriteReg(R0, 0x08001000)  returns 0x00 (0000ms, 0815ms total)
T0EC0 002:873 JLINK_WriteReg(R1, 0x00000400)  returns 0x00 (0000ms, 0815ms total)
T0EC0 002:873 JLINK_WriteReg(R2, 0x20000180)  returns 0x00 (0000ms, 0815ms total)
T0EC0 002:873 JLINK_WriteReg(R3, 0x00000000)  returns 0x00 (0001ms, 0816ms total)
T0EC0 002:874 JLINK_WriteReg(R4, 0x00000000)  returns 0x00 (0000ms, 0816ms total)
T0EC0 002:874 JLINK_WriteReg(R5, 0x00000000)  returns 0x00 (0000ms, 0816ms total)
T0EC0 002:874 JLINK_WriteReg(R6, 0x00000000)  returns 0x00 (0000ms, 0816ms total)
T0EC0 002:874 JLINK_WriteReg(R7, 0x00000000)  returns 0x00 (0000ms, 0816ms total)
T0EC0 002:874 JLINK_WriteReg(R8, 0x00000000)  returns 0x00 (0000ms, 0816ms total)
T0EC0 002:874 JLINK_WriteReg(R9, 0x2000017C)  returns 0x00 (0000ms, 0816ms total)
T0EC0 002:874 JLINK_WriteReg(R10, 0x00000000)  returns 0x00 (0000ms, 0816ms total)
T0EC0 002:874 JLINK_WriteReg(R11, 0x00000000)  returns 0x00 (0000ms, 0816ms total)
T0EC0 002:874 JLINK_WriteReg(R12, 0x00000000)  returns 0x00 (0000ms, 0816ms total)
T0EC0 002:874 JLINK_WriteReg(R13 (SP), 0x20001000)  returns 0x00 (0000ms, 0816ms total)
T0EC0 002:874 JLINK_WriteReg(R14, 0x20000001)  returns 0x00 (0000ms, 0816ms total)
T0EC0 002:874 JLINK_WriteReg(R15 (PC), 0x20000108)  returns 0x00 (0000ms, 0816ms total)
T0EC0 002:874 JLINK_WriteReg(XPSR, 0x01000000)  returns 0x00 (0000ms, 0816ms total)
T0EC0 002:874 JLINK_WriteReg(MSP, 0x20001000)  returns 0x00 (0000ms, 0816ms total)
T0EC0 002:874 JLINK_WriteReg(PSP, 0x20001000)  returns 0x00 (0000ms, 0816ms total)
T0EC0 002:875 JLINK_WriteReg(CFBP, 0x00000000)  returns 0x00 (0000ms, 0816ms total)
T0EC0 002:875 JLINK_SetBPEx(Addr = 0x20000000, Type = 0xFFFFFFF2)  returns 0x0000000E (0000ms, 0816ms total)
T0EC0 002:875 JLINK_Go() (0001ms, 0817ms total)
T0EC0 002:876 JLINK_IsHalted()  returns FALSE (0001ms, 0818ms total)
T0EC0 002:879 JLINK_IsHalted()  returns FALSE (0001ms, 0818ms total)
T0EC0 002:882 JLINK_IsHalted() -- CPU_ReadMem(2 bytes @ 0x20000000)  returns TRUE (0003ms, 0820ms total)
T0EC0 002:885 JLINK_ReadReg(R15 (PC))  returns 0x20000000 (0000ms, 0817ms total)
T0EC0 002:885 JLINK_ClrBPEx(BPHandle = 0x0000000E)  returns 0x00 (0000ms, 0817ms total)
T0EC0 002:886 JLINK_ReadReg(R0)  returns 0x00000000 (0000ms, 0817ms total)
T0EC0 002:888 JLINK_WriteMem(0x20000180, 0x0400 Bytes, ...) - Data: 00 90 69 46 DA 48 00 F0 17 FD 0C 22 04 21 D8 48 ... -- CPU_WriteMem(1024 bytes @ 0x20000180)  returns 0x400 (0007ms, 0824ms total)
T0EC0 002:895 JLINK_WriteReg(R0, 0x08001400)  returns 0x00 (0000ms, 0824ms total)
T0EC0 002:895 JLINK_WriteReg(R1, 0x00000400)  returns 0x00 (0000ms, 0824ms total)
T0EC0 002:895 JLINK_WriteReg(R2, 0x20000180)  returns 0x00 (0000ms, 0824ms total)
T0EC0 002:895 JLINK_WriteReg(R3, 0x00000000)  returns 0x00 (0000ms, 0824ms total)
T0EC0 002:895 JLINK_WriteReg(R4, 0x00000000)  returns 0x00 (0000ms, 0824ms total)
T0EC0 002:895 JLINK_WriteReg(R5, 0x00000000)  returns 0x00 (0000ms, 0824ms total)
T0EC0 002:895 JLINK_WriteReg(R6, 0x00000000)  returns 0x00 (0000ms, 0824ms total)
T0EC0 002:895 JLINK_WriteReg(R7, 0x00000000)  returns 0x00 (0000ms, 0824ms total)
T0EC0 002:895 JLINK_WriteReg(R8, 0x00000000)  returns 0x00 (0000ms, 0824ms total)
T0EC0 002:895 JLINK_WriteReg(R9, 0x2000017C)  returns 0x00 (0000ms, 0824ms total)
